
T4FD4 000:052 SEGGER J-Link V6.00e Log File (0000ms, 0015ms total)
T4FD4 000:052 DLL Compiled: Aug  4 2016 09:37:38 (0000ms, 0015ms total)
T4FD4 000:052 Logging started @ 2017-11-25 22:22 (0000ms, 0015ms total)
T4FD4 000:052 JLINK_SetWarnOutHandler(...) (0000ms, 0015ms total)
T4FD4 000:052 JLINK_OpenEx(...)
Firmware: J-Link ARM V8 compiled Nov 28 2014 13:44:46
Hardware: V8.00
S/N: 17935099
Feature(s): RDI,FlashDL,FlashBP,JFlash  returns O.K. (0012ms, 0027ms total)
T4FD4 000:064 JLINK_SetErrorOutHandler(...) (0000ms, 0027ms total)
T4FD4 000:064 JLINK_ExecCommand("ProjectFile = "C:\Users\ZhaoYang\Desktop\BalanceCar\BalanceCar\JLinkSettings.ini"", ...).   returns 0x00 (0127ms, 0154ms total)
T4FD4 000:191 JLINK_ExecCommand("Device = STM32F103ZE", ...). Device "STM32F103ZE" selected.  returns 0x00 (0001ms, 0155ms total)
T4FD4 000:192 JLINK_ExecCommand("DisableConnectionTimeout", ...).   returns 0x01 (0000ms, 0155ms total)
T4FD4 000:192 JLINK_GetHardwareVersion()  returns 0x13880 (0000ms, 0155ms total)
T4FD4 000:192 JLINK_GetDLLVersion()  returns 60005 (0000ms, 0155ms total)
T4FD4 000:192 JLINK_GetFirmwareString(...) (0000ms, 0155ms total)
T4FD4 000:192 JLINK_GetDLLVersion()  returns 60005 (0000ms, 0155ms total)
T4FD4 000:192 JLINK_GetCompileDateTime() (0000ms, 0155ms total)
T4FD4 000:192 JLINK_GetFirmwareString(...) (0000ms, 0155ms total)
T4FD4 000:192 JLINK_GetHardwareVersion()  returns 0x13880 (0000ms, 0155ms total)
T4FD4 000:192 JLINK_TIF_Select(JLINKARM_TIF_JTAG)  returns 0x00 (0003ms, 0158ms total)
T4FD4 000:195 JLINK_SetSpeed(5000) (0000ms, 0158ms total)
T4FD4 000:195 JLINK_GetIdData(...) >0x2F8 JTAG>TotalIRLen = 9, IRPrint = 0x0011 >0x30 JTAG> >0x410 JTAG> >0x40 JTAG> >0x40 JTAG> >0x40 JTAG> >0x30 JTAG> >0x40 JTAG> >0x40 JTAG> >0x40 JTAG> >0x40 JTAG> >0x40 JTAG> >0x40 JTAG> >0x40 JTAG> >0x40 JTAG> >0x40 JTAG> >0x40 JTAG> >0x40 JTAG> >0x40 JTAG> >0x40 JTAG> >0x40 JTAG> >0x40 JTAG> >0x40 JTAG> >0x40 JTAG> >0x40 JTAG> >0x40 JTAG> >0x40 JTAG> >0x40 JTAG> >0x40 JTAG> >0x40 JTAG> >0x2F8 JTAG>TotalIRLen = 9, IRPrint = 0x0011 >0x30 JTAG> >0x410 JTAG>
 >0x70 JTAG> >0x50 JTAG> >0x40 JTAG> >0x50 JTAG>AP-IDR: 0x14770011, Type: AHB-AP >0x80 JTAG> >0x40 JTAG> >0x30 JTAG> >0x40 JTAG> >0x40 JTAG> >0x30 JTAG> >0x40 JTAG> >0x50 JTAG>Found Cortex-M3 r1p1, Little endian. -- CPU_ReadMem(4 bytes @ 0xE000EDF0) -- CPU_ReadMem(4 bytes @ 0xE0002000)FPUnit: 6 code (BP) slots and 2 literal slots -- CPU_ReadMem(4 bytes @ 0xE000EDFC) -- CPU_ReadMem(4 bytes @ 0xE0001000) -- CPU_WriteMem(4 bytes @ 0xE0001000) -- CPU_ReadMem(4 bytes @ 0xE000ED88)
 -- CPU_WriteMem(4 bytes @ 0xE000ED88) -- CPU_ReadMem(4 bytes @ 0xE000ED88) -- CPU_WriteMem(4 bytes @ 0xE000ED88)CoreSight components:ROMTbl 0 @ E00FF000 -- CPU_ReadMem(16 bytes @ 0xE00FF000) -- CPU_ReadMem(16 bytes @ 0xE000EFF0) -- CPU_ReadMem(16 bytes @ 0xE000EFE0)ROMTbl 0 [0]: FFF0F000, CID: B105E00D, PID: 001BB000 SCS -- CPU_ReadMem(16 bytes @ 0xE0001FF0) -- CPU_ReadMem(16 bytes @ 0xE0001FE0)ROMTbl 0 [1]: FFF02000, CID: B105E00D, PID: 001BB002 DWT -- CPU_ReadMem(16 bytes @ 0xE0002FF0)
 -- CPU_ReadMem(16 bytes @ 0xE0002FE0)ROMTbl 0 [2]: FFF03000, CID: B105E00D, PID: 000BB003 FPB -- CPU_ReadMem(16 bytes @ 0xE0000FF0) -- CPU_ReadMem(16 bytes @ 0xE0000FE0)ROMTbl 0 [3]: FFF01000, CID: B105E00D, PID: 001BB001 ITM -- CPU_ReadMem(16 bytes @ 0xE00FF010) -- CPU_ReadMem(16 bytes @ 0xE0040FF0) -- CPU_ReadMem(16 bytes @ 0xE0040FE0)ROMTbl 0 [4]: FFF41000, CID: B105900D, PID: 001BB923 TPIU-Lite -- CPU_ReadMem(16 bytes @ 0xE0041FF0) -- CPU_ReadMem(16 bytes @ 0xE0041FE0)
ROMTbl 0 [5]: FFF42000, CID: B105900D, PID: 101BB924 ETM-M3 ScanLen=9 NumDevices=2 aId[0]=0x3BA00477 aIrRead[0]=0 aScanLen[0]=0 aScanRead[0]=0 (0039ms, 0197ms total)
T4FD4 000:234 JLINK_JTAG_GetDeviceID(DeviceIndex = 0)  returns 0x3BA00477 (0000ms, 0197ms total)
T4FD4 000:234 JLINK_JTAG_GetDeviceInfo(DeviceIndex = 0)  returns 0x00 (0000ms, 0197ms total)
T4FD4 000:234 JLINK_JTAG_GetDeviceID(DeviceIndex = 1)  returns 0x6414041 (0000ms, 0197ms total)
T4FD4 000:234 JLINK_JTAG_GetDeviceInfo(DeviceIndex = 1)  returns 0x00 (0000ms, 0197ms total)
T4FD4 000:234 JLINK_GetDLLVersion()  returns 60005 (0000ms, 0197ms total)
T4FD4 000:234 JLINK_CORE_GetFound()  returns 0x30000FF (0000ms, 0197ms total)
T4FD4 000:234 JLINK_GetDebugInfo(0x100) -- Value=0xE00FF003  returns 0x00 (0000ms, 0197ms total)
T4FD4 000:234 JLINK_GetDebugInfo(0x100) -- Value=0xE00FF003  returns 0x00 (0000ms, 0197ms total)
T4FD4 000:234 JLINK_GetDebugInfo(0x101) -- Value=0xE0041000  returns 0x00 (0000ms, 0197ms total)
T4FD4 000:234 JLINK_GetDebugInfo(0x102) -- Value=0x00000000  returns 0x00 (0000ms, 0197ms total)
T4FD4 000:234 JLINK_GetDebugInfo(0x103) -- Value=0xE0040000  returns 0x00 (0000ms, 0197ms total)
T4FD4 000:234 JLINK_GetDebugInfo(0x104) -- Value=0xE0000000  returns 0x00 (0000ms, 0197ms total)
T4FD4 000:234 JLINK_GetDebugInfo(0x105) -- Value=0xE0001000  returns 0x00 (0000ms, 0197ms total)
T4FD4 000:234 JLINK_GetDebugInfo(0x106) -- Value=0xE0002000  returns 0x00 (0000ms, 0197ms total)
T4FD4 000:234 JLINK_GetDebugInfo(0x107) -- Value=0xE000E000  returns 0x00 (0000ms, 0197ms total)
T4FD4 000:234 JLINK_GetDebugInfo(0x10C) -- Value=0xE000EDF0  returns 0x00 (0000ms, 0197ms total)
T4FD4 000:234 JLINK_ReadMemU32(0xE000ED00, 0x0001 Items, ...) -- CPU is running -- CPU_ReadMem(4 bytes @ 0xE000ED00) - Data: 31 C2 1F 41  returns 0x01 (0001ms, 0198ms total)
T4FD4 000:235 JLINK_SetResetType(JLINKARM_RESET_TYPE_NORMAL)  returns JLINKARM_RESET_TYPE_NORMAL (0000ms, 0198ms total)
T4FD4 000:235 JLINK_Reset() -- CPU is running -- CPU_WriteMem(4 bytes @ 0xE000EDF0) -- CPU is running -- CPU_WriteMem(4 bytes @ 0xE000EDFC) -- CPU is running -- CPU_WriteMem(4 bytes @ 0xE000ED0C) -- CPU is running -- CPU_ReadMem(4 bytes @ 0xE000EDF0) -- CPU is running -- CPU_ReadMem(4 bytes @ 0xE000EDF0) -- CPU is running -- CPU_WriteMem(4 bytes @ 0xE000EDF0) -- CPU is running -- CPU_WriteMem(4 bytes @ 0xE000EDFC) -- CPU is running -- CPU_ReadMem(4 bytes @ 0xE000EDF0) >0x80 JTAG> >0x40 JTAG> >0x30 JTAG>
 >0x40 JTAG> >0x50 JTAG> >0x40 JTAG> -- CPU_WriteMem(4 bytes @ 0xE000EDFC) -- CPU_WriteMem(4 bytes @ 0xE0001028) -- CPU_WriteMem(4 bytes @ 0xE0001038) -- CPU_WriteMem(4 bytes @ 0xE0001048) -- CPU_WriteMem(4 bytes @ 0xE0001058) -- CPU_WriteMem(4 bytes @ 0xE0002000) -- CPU_ReadMem(4 bytes @ 0xE000EDFC) -- CPU_ReadMem(4 bytes @ 0xE0001000) (0029ms, 0227ms total)
T4FD4 000:264 JLINK_ReadReg(R15 (PC))  returns 0x080004FC (0000ms, 0227ms total)
T4FD4 000:264 JLINK_ReadReg(XPSR)  returns 0x01000000 (0000ms, 0227ms total)
T4FD4 000:264 JLINK_Halt()  returns 0x00 (0000ms, 0227ms total)
T4FD4 000:264 JLINK_IsHalted()  returns TRUE (0000ms, 0227ms total)
T4FD4 000:264 JLINK_ReadMemU32(0xE000EDF0, 0x0001 Items, ...) -- CPU_ReadMem(4 bytes @ 0xE000EDF0) - Data: 03 00 03 00  returns 0x01 (0002ms, 0229ms total)
T4FD4 000:266 JLINK_WriteU32(0xE000EDF0, 0xA05F0003) -- CPU_WriteMem(4 bytes @ 0xE000EDF0)  returns 0x00 (0001ms, 0230ms total)
T4FD4 000:267 JLINK_WriteU32(0xE000EDFC, 0x01000000) -- CPU_WriteMem(4 bytes @ 0xE000EDFC)  returns 0x00 (0000ms, 0230ms total)
T4FD4 000:267 JLINK_GetHWStatus(...)  returns 0x00 (0000ms, 0230ms total)
T4FD4 000:267 JLINK_GetNumBPUnits(Type = 0xFFFFFF00)  returns 0x06 (0000ms, 0230ms total)
T4FD4 000:267 JLINK_GetNumBPUnits(Type = 0xF0)  returns 0x2000 (0000ms, 0230ms total)
T4FD4 000:267 JLINK_GetNumWPUnits()  returns 0x04 (0000ms, 0230ms total)
T4FD4 000:267 JLINK_GetSpeed()  returns 0x12C0 (0000ms, 0230ms total)
T4FD4 000:267 JLINK_ReadMemU32(0xE000E004, 0x0001 Items, ...) -- CPU_ReadMem(4 bytes @ 0xE000E004) - Data: 01 00 00 00  returns 0x01 (0001ms, 0231ms total)
T4FD4 000:268 JLINK_ReadMemU32(0xE000E004, 0x0001 Items, ...) -- CPU_ReadMem(4 bytes @ 0xE000E004) - Data: 01 00 00 00  returns 0x01 (0001ms, 0232ms total)
T4FD4 000:269 JLINK_WriteMem(0xE0001000, 0x001C Bytes, ...) - Data: 01 00 00 00 00 00 00 00 00 00 00 00 00 00 00 00 ... -- CPU_WriteMem(28 bytes @ 0xE0001000)  returns 0x1C (0001ms, 0233ms total)
T4FD4 000:270 JLINK_ReadMem (0xE0001000, 0x001C Bytes, ...) -- CPU_ReadMem(28 bytes @ 0xE0001000) - Data: 01 00 00 40 00 00 00 00 00 00 00 00 00 00 00 00 ...  returns 0x00 (0000ms, 0233ms total)
T4FD4 000:270 JLINK_ReadReg(R15 (PC))  returns 0x080004FC (0000ms, 0233ms total)
T4FD4 000:270 JLINK_ReadReg(XPSR)  returns 0x01000000 (0000ms, 0233ms total)
T4FD4 000:365 JLINK_SetResetType(JLINKARM_RESET_TYPE_NORMAL)  returns JLINKARM_RESET_TYPE_NORMAL (0000ms, 0233ms total)
T4FD4 000:365 JLINK_Reset() -- CPU_WriteMem(4 bytes @ 0xE000EDF0) -- CPU_WriteMem(4 bytes @ 0xE000EDFC) -- CPU_WriteMem(4 bytes @ 0xE000ED0C) -- CPU_ReadMem(4 bytes @ 0xE000EDF0) -- CPU_ReadMem(4 bytes @ 0xE000EDF0) -- CPU_WriteMem(4 bytes @ 0xE000EDF0) -- CPU_WriteMem(4 bytes @ 0xE000EDFC) -- CPU is running -- CPU_ReadMem(4 bytes @ 0xE000EDF0) >0x80 JTAG> >0x40 JTAG> >0x30 JTAG> >0x40 JTAG> >0x50 JTAG> >0x40 JTAG> -- CPU_WriteMem(4 bytes @ 0xE000EDFC) -- CPU_WriteMem(4 bytes @ 0xE0001028)
 -- CPU_WriteMem(4 bytes @ 0xE0001038) -- CPU_WriteMem(4 bytes @ 0xE0001048) -- CPU_WriteMem(4 bytes @ 0xE0001058) -- CPU_WriteMem(4 bytes @ 0xE0002000) -- CPU_ReadMem(4 bytes @ 0xE000EDFC) -- CPU_ReadMem(4 bytes @ 0xE0001000) (0036ms, 0269ms total)
T4FD4 000:401 JLINK_ReadReg(R15 (PC))  returns 0x080004FC (0000ms, 0269ms total)
T4FD4 000:401 JLINK_ReadReg(XPSR)  returns 0x01000000 (0001ms, 0270ms total)
T4FD4 000:697 JLINK_ReadMem (0x080004FC, 0x003C Bytes, ...) -- CPU_ReadMem(128 bytes @ 0x080004C0) -- Updating C cache (128 bytes @ 0x080004C0) -- Read from C cache (60 bytes @ 0x080004FC) - Data: 06 48 80 47 06 48 00 47 FE E7 FE E7 FE E7 FE E7 ...  returns 0x00 (0002ms, 0272ms total)
T4CE4 003:706 JLINK_SetBPEx(Addr = 0x08000144, Type = 0xFFFFFFF2)  returns 0x00000001 (0000ms, 0272ms total)
T4CE4 003:706 JLINK_Go() -- CPU_ReadMem(4 bytes @ 0xE0001000) -- CPU_WriteMem(4 bytes @ 0xE0002008) -- CPU_WriteMem(4 bytes @ 0xE000200C) -- CPU_WriteMem(4 bytes @ 0xE0002010) -- CPU_WriteMem(4 bytes @ 0xE0002014) -- CPU_WriteMem(4 bytes @ 0xE0002018) -- CPU_WriteMem(4 bytes @ 0xE000201C) -- CPU_WriteMem(4 bytes @ 0xE0001004) (0005ms, 0277ms total)
T4CE4 003:812 JLINK_IsHalted()  returns TRUE (0003ms, 0280ms total)
T4CE4 003:815 JLINK_Halt()  returns 0x00 (0000ms, 0277ms total)
T4CE4 003:815 JLINK_IsHalted()  returns TRUE (0000ms, 0277ms total)
T4CE4 003:815 JLINK_IsHalted()  returns TRUE (0000ms, 0277ms total)
T4CE4 003:815 JLINK_IsHalted()  returns TRUE (0000ms, 0277ms total)
T4CE4 003:815 JLINK_ReadReg(R15 (PC))  returns 0x08000144 (0000ms, 0277ms total)
T4CE4 003:815 JLINK_ReadReg(XPSR)  returns 0x61000000 (0000ms, 0277ms total)
T4CE4 003:815 JLINK_ClrBPEx(BPHandle = 0x00000001)  returns 0x00 (0000ms, 0277ms total)
T4CE4 003:815 JLINK_ReadMemU32(0xE000ED30, 0x0001 Items, ...) -- CPU_ReadMem(4 bytes @ 0xE000ED30) - Data: 03 00 00 00  returns 0x01 (0001ms, 0278ms total)
T4CE4 003:816 JLINK_ReadMemU32(0xE0001028, 0x0001 Items, ...) -- CPU_ReadMem(4 bytes @ 0xE0001028) - Data: 00 00 00 00  returns 0x01 (0001ms, 0279ms total)
T4CE4 003:817 JLINK_ReadMemU32(0xE0001038, 0x0001 Items, ...) -- CPU_ReadMem(4 bytes @ 0xE0001038) - Data: 00 02 00 00  returns 0x01 (0001ms, 0280ms total)
T4CE4 003:818 JLINK_ReadMemU32(0xE0001048, 0x0001 Items, ...) -- CPU_ReadMem(4 bytes @ 0xE0001048) - Data: 00 00 00 00  returns 0x01 (0000ms, 0280ms total)
T4CE4 003:818 JLINK_ReadMemU32(0xE0001058, 0x0001 Items, ...) -- CPU_ReadMem(4 bytes @ 0xE0001058) - Data: 00 00 00 00  returns 0x01 (0001ms, 0281ms total)
T4CE4 003:819 JLINK_ReadReg(R0)  returns 0x08000145 (0000ms, 0281ms total)
T4CE4 003:819 JLINK_ReadReg(R1)  returns 0x200006F8 (0000ms, 0281ms total)
T4CE4 003:819 JLINK_ReadReg(R2)  returns 0x00000000 (0000ms, 0281ms total)
T4CE4 003:819 JLINK_ReadReg(R3)  returns 0x08006F7D (0000ms, 0281ms total)
T4CE4 003:819 JLINK_ReadReg(R4)  returns 0x08008C50 (0000ms, 0281ms total)
T4CE4 003:819 JLINK_ReadReg(R5)  returns 0x08008C50 (0000ms, 0281ms total)
T4CE4 003:819 JLINK_ReadReg(R6)  returns 0x00000000 (0000ms, 0281ms total)
T4CE4 003:819 JLINK_ReadReg(R7)  returns 0x00000000 (0000ms, 0281ms total)
T4CE4 003:819 JLINK_ReadReg(R8)  returns 0x00000000 (0000ms, 0281ms total)
T4CE4 003:819 JLINK_ReadReg(R9)  returns 0x20000160 (0000ms, 0281ms total)
T4CE4 003:819 JLINK_ReadReg(R10)  returns 0x00000000 (0000ms, 0281ms total)
T4CE4 003:819 JLINK_ReadReg(R11)  returns 0x00000000 (0000ms, 0281ms total)
T4CE4 003:819 JLINK_ReadReg(R12)  returns 0x00000800 (0000ms, 0281ms total)
T4CE4 003:819 JLINK_ReadReg(R13 (SP))  returns 0x200006F8 (0000ms, 0281ms total)
T4CE4 003:819 JLINK_ReadReg(R14)  returns 0x08006D89 (0001ms, 0282ms total)
T4CE4 003:820 JLINK_ReadReg(R15 (PC))  returns 0x08000144 (0000ms, 0282ms total)
T4CE4 003:820 JLINK_ReadReg(XPSR)  returns 0x61000000 (0000ms, 0282ms total)
T4CE4 003:820 JLINK_ReadReg(MSP)  returns 0x200006F8 (0000ms, 0282ms total)
T4CE4 003:820 JLINK_ReadReg(PSP)  returns 0x20001000 (0000ms, 0282ms total)
T4CE4 003:820 JLINK_ReadReg(CFBP)  returns 0x00000000 (0000ms, 0282ms total)
T4FD4 003:825 JLINK_ReadMemU32(0xE0001004, 0x0001 Items, ...) -- CPU_ReadMem(4 bytes @ 0xE0001004) - Data: DC 1F 00 00  returns 0x01 (0001ms, 0283ms total)
T4FD4 003:831 JLINK_ReadMem (0x08000144, 0x003C Bytes, ...) -- CPU_ReadMem(64 bytes @ 0x08000140) -- Updating C cache (64 bytes @ 0x08000140) -- Read from C cache (60 bytes @ 0x08000144) - Data: 00 F0 04 F8 01 E0 00 F0 61 F8 FC E7 10 B5 01 F0 ...  returns 0x00 (0000ms, 0283ms total)
T4FD4 005:651 JLINK_ReadMem (0x080004FC, 0x003C Bytes, ...) -- CPU_ReadMem(128 bytes @ 0x080004C0) -- Updating C cache (128 bytes @ 0x080004C0) -- Read from C cache (60 bytes @ 0x080004FC) - Data: 06 48 80 47 06 48 00 47 FE E7 FE E7 FE E7 FE E7 ...  returns 0x00 (0001ms, 0284ms total)
T4CE4 015:954 JLINK_Step() -- Read from C cache (2 bytes @ 0x08000144) -- CPU_ReadMem(4 bytes @ 0xE000ED18) -- CPU_WriteMem(4 bytes @ 0xE000ED18) -- CPU_ReadMem(4 bytes @ 0xE000ED18) -- CPU_WriteMem(4 bytes @ 0xE000ED18) -- Read from C cache (2 bytes @ 0x08000146) -- Simulated  returns 0x00 (0003ms, 0287ms total)
T4CE4 015:957 JLINK_ReadReg(R15 (PC))  returns 0x08000150 (0000ms, 0287ms total)
T4CE4 015:957 JLINK_ReadReg(XPSR)  returns 0x61000000 (0000ms, 0287ms total)
T4CE4 015:957 JLINK_ReadReg(R0)  returns 0x08000145 (0000ms, 0287ms total)
T4CE4 015:957 JLINK_ReadReg(R1)  returns 0x200006F8 (0000ms, 0287ms total)
T4CE4 015:957 JLINK_ReadReg(R2)  returns 0x00000000 (0000ms, 0287ms total)
T4CE4 015:957 JLINK_ReadReg(R3)  returns 0x08006F7D (0000ms, 0287ms total)
T4CE4 015:957 JLINK_ReadReg(R4)  returns 0x08008C50 (0000ms, 0287ms total)
T4CE4 015:957 JLINK_ReadReg(R5)  returns 0x08008C50 (0000ms, 0287ms total)
T4CE4 015:957 JLINK_ReadReg(R6)  returns 0x00000000 (0000ms, 0287ms total)
T4CE4 015:957 JLINK_ReadReg(R7)  returns 0x00000000 (0000ms, 0287ms total)
T4CE4 015:957 JLINK_ReadReg(R8)  returns 0x00000000 (0000ms, 0287ms total)
T4CE4 015:957 JLINK_ReadReg(R9)  returns 0x20000160 (0000ms, 0287ms total)
T4CE4 015:957 JLINK_ReadReg(R10)  returns 0x00000000 (0000ms, 0287ms total)
T4CE4 015:957 JLINK_ReadReg(R11)  returns 0x00000000 (0000ms, 0287ms total)
T4CE4 015:957 JLINK_ReadReg(R12)  returns 0x00000800 (0000ms, 0287ms total)
T4CE4 015:957 JLINK_ReadReg(R13 (SP))  returns 0x200006F8 (0000ms, 0287ms total)
T4CE4 015:957 JLINK_ReadReg(R14)  returns 0x08000149 (0000ms, 0287ms total)
T4CE4 015:957 JLINK_ReadReg(R15 (PC))  returns 0x08000150 (0000ms, 0287ms total)
T4CE4 015:957 JLINK_ReadReg(XPSR)  returns 0x61000000 (0000ms, 0287ms total)
T4CE4 015:957 JLINK_ReadReg(MSP)  returns 0x200006F8 (0000ms, 0287ms total)
T4CE4 015:957 JLINK_ReadReg(PSP)  returns 0x20001000 (0000ms, 0287ms total)
T4CE4 015:957 JLINK_ReadReg(CFBP)  returns 0x00000000 (0000ms, 0287ms total)
T4FD4 015:974 JLINK_ReadMemU32(0xE0001004, 0x0001 Items, ...) - Data: DC 1F 00 00  returns 0x01 (0000ms, 0287ms total)
T4FD4 015:979 JLINK_ReadMem (0x08000150, 0x003C Bytes, ...) -- CPU_ReadMem(64 bytes @ 0x08000180) -- Updating C cache (64 bytes @ 0x08000180) -- Read from C cache (60 bytes @ 0x08000150) - Data: 10 B5 01 F0 E5 FE 00 F0 21 F8 4F F4 E1 30 01 F0 ...  returns 0x00 (0001ms, 0288ms total)
T4CE4 017:555 JLINK_Step() -- Read from C cache (2 bytes @ 0x08000150) -- CPU_WriteMem(8 bytes @ 0x200006F0) -- Simulated  returns 0x00 (0001ms, 0289ms total)
T4CE4 017:556 JLINK_ReadReg(R15 (PC))  returns 0x08000152 (0000ms, 0289ms total)
T4CE4 017:556 JLINK_ReadReg(XPSR)  returns 0x61000000 (0000ms, 0289ms total)
T4CE4 017:556 JLINK_ReadReg(R0)  returns 0x08000145 (0000ms, 0289ms total)
T4CE4 017:556 JLINK_ReadReg(R1)  returns 0x200006F8 (0000ms, 0289ms total)
T4CE4 017:556 JLINK_ReadReg(R2)  returns 0x00000000 (0000ms, 0289ms total)
T4CE4 017:556 JLINK_ReadReg(R3)  returns 0x08006F7D (0000ms, 0289ms total)
T4CE4 017:556 JLINK_ReadReg(R4)  returns 0x08008C50 (0000ms, 0289ms total)
T4CE4 017:556 JLINK_ReadReg(R5)  returns 0x08008C50 (0000ms, 0289ms total)
T4CE4 017:556 JLINK_ReadReg(R6)  returns 0x00000000 (0000ms, 0289ms total)
T4CE4 017:556 JLINK_ReadReg(R7)  returns 0x00000000 (0000ms, 0289ms total)
T4CE4 017:556 JLINK_ReadReg(R8)  returns 0x00000000 (0000ms, 0289ms total)
T4CE4 017:556 JLINK_ReadReg(R9)  returns 0x20000160 (0000ms, 0289ms total)
T4CE4 017:556 JLINK_ReadReg(R10)  returns 0x00000000 (0000ms, 0289ms total)
T4CE4 017:556 JLINK_ReadReg(R11)  returns 0x00000000 (0000ms, 0289ms total)
T4CE4 017:556 JLINK_ReadReg(R12)  returns 0x00000800 (0000ms, 0289ms total)
T4CE4 017:556 JLINK_ReadReg(R13 (SP))  returns 0x200006F0 (0000ms, 0289ms total)
T4CE4 017:556 JLINK_ReadReg(R14)  returns 0x08000149 (0000ms, 0289ms total)
T4CE4 017:556 JLINK_ReadReg(R15 (PC))  returns 0x08000152 (0000ms, 0289ms total)
T4CE4 017:556 JLINK_ReadReg(XPSR)  returns 0x61000000 (0000ms, 0289ms total)
T4CE4 017:556 JLINK_ReadReg(MSP)  returns 0x200006F0 (0000ms, 0289ms total)
T4CE4 017:556 JLINK_ReadReg(PSP)  returns 0x20001000 (0000ms, 0289ms total)
T4CE4 017:556 JLINK_ReadReg(CFBP)  returns 0x00000000 (0000ms, 0289ms total)
T4FD4 017:558 JLINK_ReadMem (0x200006F4, 0x0004 Bytes, ...) -- CPU_ReadMem(64 bytes @ 0x200006C0) -- Updating C cache (64 bytes @ 0x200006C0) -- Read from C cache (4 bytes @ 0x200006F4) - Data: 49 01 00 08  returns 0x00 (0001ms, 0290ms total)
T4FD4 017:559 JLINK_ReadMem (0x200006F0, 0x0004 Bytes, ...) -- Read from C cache (4 bytes @ 0x200006F0) - Data: 50 8C 00 08  returns 0x00 (0000ms, 0290ms total)
T4FD4 017:559 JLINK_ReadMemU32(0xE0001004, 0x0001 Items, ...) - Data: DC 1F 00 00  returns 0x01 (0000ms, 0290ms total)
T4FD4 017:567 JLINK_ReadMem (0x08000152, 0x0002 Bytes, ...) -- Read from C cache (2 bytes @ 0x08000152) - Data: 01 F0  returns 0x00 (0000ms, 0290ms total)
T4FD4 017:567 JLINK_ReadMem (0x08000154, 0x003C Bytes, ...) -- Read from C cache (60 bytes @ 0x08000154) - Data: E5 FE 00 F0 21 F8 4F F4 E1 30 01 F0 59 FF 05 F0 ...  returns 0x00 (0000ms, 0290ms total)
T4CE4 018:651 JLINK_Step() -- Read from C cache (2 bytes @ 0x08000152) -- Read from C cache (2 bytes @ 0x08000154) -- Simulated  returns 0x00 (0001ms, 0291ms total)
T4CE4 018:652 JLINK_ReadReg(R15 (PC))  returns 0x08001F20 (0000ms, 0291ms total)
T4CE4 018:652 JLINK_ReadReg(XPSR)  returns 0x61000000 (0000ms, 0291ms total)
T4CE4 018:652 JLINK_ReadReg(R0)  returns 0x08000145 (0000ms, 0291ms total)
T4CE4 018:652 JLINK_ReadReg(R1)  returns 0x200006F8 (0000ms, 0291ms total)
T4CE4 018:652 JLINK_ReadReg(R2)  returns 0x00000000 (0000ms, 0291ms total)
T4CE4 018:652 JLINK_ReadReg(R3)  returns 0x08006F7D (0000ms, 0291ms total)
T4CE4 018:652 JLINK_ReadReg(R4)  returns 0x08008C50 (0000ms, 0291ms total)
T4CE4 018:652 JLINK_ReadReg(R5)  returns 0x08008C50 (0000ms, 0291ms total)
T4CE4 018:652 JLINK_ReadReg(R6)  returns 0x00000000 (0000ms, 0291ms total)
T4CE4 018:652 JLINK_ReadReg(R7)  returns 0x00000000 (0000ms, 0291ms total)
T4CE4 018:652 JLINK_ReadReg(R8)  returns 0x00000000 (0000ms, 0291ms total)
T4CE4 018:652 JLINK_ReadReg(R9)  returns 0x20000160 (0000ms, 0291ms total)
T4CE4 018:652 JLINK_ReadReg(R10)  returns 0x00000000 (0000ms, 0291ms total)
T4CE4 018:652 JLINK_ReadReg(R11)  returns 0x00000000 (0000ms, 0291ms total)
T4CE4 018:652 JLINK_ReadReg(R12)  returns 0x00000800 (0000ms, 0291ms total)
T4CE4 018:652 JLINK_ReadReg(R13 (SP))  returns 0x200006F0 (0000ms, 0291ms total)
T4CE4 018:652 JLINK_ReadReg(R14)  returns 0x08000157 (0000ms, 0291ms total)
T4CE4 018:652 JLINK_ReadReg(R15 (PC))  returns 0x08001F20 (0000ms, 0291ms total)
T4CE4 018:652 JLINK_ReadReg(XPSR)  returns 0x61000000 (0000ms, 0291ms total)
T4CE4 018:652 JLINK_ReadReg(MSP)  returns 0x200006F0 (0000ms, 0291ms total)
T4CE4 018:652 JLINK_ReadReg(PSP)  returns 0x20001000 (0000ms, 0291ms total)
T4CE4 018:652 JLINK_ReadReg(CFBP)  returns 0x00000000 (0000ms, 0291ms total)
T4FD4 018:654 JLINK_ReadMem (0x200006F4, 0x0004 Bytes, ...) -- Read from C cache (4 bytes @ 0x200006F4) - Data: 49 01 00 08  returns 0x00 (0000ms, 0291ms total)
T4FD4 018:654 JLINK_ReadMem (0x200006F0, 0x0004 Bytes, ...) -- Read from C cache (4 bytes @ 0x200006F0) - Data: 50 8C 00 08  returns 0x00 (0000ms, 0291ms total)
T4FD4 018:666 JLINK_ReadMemU32(0xE0001004, 0x0001 Items, ...) - Data: DC 1F 00 00  returns 0x01 (0000ms, 0291ms total)
T4FD4 021:922 JLINK_ReadMem (0x08000144, 0x003C Bytes, ...) -- Read from C cache (60 bytes @ 0x08000144) - Data: 00 F0 04 F8 01 E0 00 F0 61 F8 FC E7 10 B5 01 F0 ...  returns 0x00 (0000ms, 0291ms total)
T4CE4 030:036 JLINK_SetBPEx(Addr = 0x08000156, Type = 0xFFFFFFF2)  returns 0x00000002 (0000ms, 0291ms total)
T4CE4 030:036 JLINK_Go() -- CPU_ReadMem(4 bytes @ 0xE0001000) -- CPU_WriteMem(4 bytes @ 0xE0002008) -- CPU_WriteMem(4 bytes @ 0xE0001004) (0004ms, 0295ms total)
T4CE4 030:141 JLINK_IsHalted()  returns TRUE (0003ms, 0298ms total)
T4CE4 030:145 JLINK_Halt()  returns 0x00 (0000ms, 0295ms total)
T4CE4 030:145 JLINK_IsHalted()  returns TRUE (0000ms, 0295ms total)
T4CE4 030:145 JLINK_IsHalted()  returns TRUE (0000ms, 0295ms total)
T4CE4 030:145 JLINK_IsHalted()  returns TRUE (0000ms, 0295ms total)
T4CE4 030:145 JLINK_ReadReg(R15 (PC))  returns 0x08000156 (0000ms, 0295ms total)
T4CE4 030:145 JLINK_ReadReg(XPSR)  returns 0x61000000 (0000ms, 0295ms total)
T4CE4 030:145 JLINK_ClrBPEx(BPHandle = 0x00000002)  returns 0x00 (0001ms, 0296ms total)
T4CE4 030:146 JLINK_ReadMemU32(0xE000ED30, 0x0001 Items, ...) -- CPU_ReadMem(4 bytes @ 0xE000ED30) - Data: 03 00 00 00  returns 0x01 (0000ms, 0296ms total)
T4CE4 030:146 JLINK_ReadMemU32(0xE0001028, 0x0001 Items, ...) -- CPU_ReadMem(4 bytes @ 0xE0001028) - Data: 00 00 00 00  returns 0x01 (0001ms, 0297ms total)
T4CE4 030:147 JLINK_ReadMemU32(0xE0001038, 0x0001 Items, ...) -- CPU_ReadMem(4 bytes @ 0xE0001038) - Data: 00 02 00 00  returns 0x01 (0001ms, 0298ms total)
T4CE4 030:148 JLINK_ReadMemU32(0xE0001048, 0x0001 Items, ...) -- CPU_ReadMem(4 bytes @ 0xE0001048) - Data: 00 00 00 00  returns 0x01 (0001ms, 0299ms total)
T4CE4 030:149 JLINK_ReadMemU32(0xE0001058, 0x0001 Items, ...) -- CPU_ReadMem(4 bytes @ 0xE0001058) - Data: 00 00 00 00  returns 0x01 (0001ms, 0300ms total)
T4CE4 030:150 JLINK_ReadReg(R0)  returns 0x00000000 (0000ms, 0300ms total)
T4CE4 030:150 JLINK_ReadReg(R1)  returns 0x00011940 (0000ms, 0300ms total)
T4CE4 030:150 JLINK_ReadReg(R2)  returns 0xE000E000 (0000ms, 0300ms total)
T4CE4 030:150 JLINK_ReadReg(R3)  returns 0xE000ED18 (0000ms, 0300ms total)
T4CE4 030:150 JLINK_ReadReg(R4)  returns 0x08008C50 (0000ms, 0300ms total)
T4CE4 030:150 JLINK_ReadReg(R5)  returns 0x08008C50 (0000ms, 0300ms total)
T4CE4 030:150 JLINK_ReadReg(R6)  returns 0x00000000 (0000ms, 0300ms total)
T4CE4 030:150 JLINK_ReadReg(R7)  returns 0x00000000 (0000ms, 0300ms total)
T4CE4 030:150 JLINK_ReadReg(R8)  returns 0x00000000 (0000ms, 0300ms total)
T4CE4 030:150 JLINK_ReadReg(R9)  returns 0x20000160 (0000ms, 0300ms total)
T4CE4 030:150 JLINK_ReadReg(R10)  returns 0x00000000 (0000ms, 0300ms total)
T4CE4 030:150 JLINK_ReadReg(R11)  returns 0x00000000 (0000ms, 0300ms total)
T4CE4 030:150 JLINK_ReadReg(R12)  returns 0x00000800 (0000ms, 0300ms total)
T4CE4 030:150 JLINK_ReadReg(R13 (SP))  returns 0x200006F0 (0001ms, 0301ms total)
T4CE4 030:151 JLINK_ReadReg(R14)  returns 0x08000157 (0000ms, 0301ms total)
T4CE4 030:151 JLINK_ReadReg(R15 (PC))  returns 0x08000156 (0000ms, 0301ms total)
T4CE4 030:151 JLINK_ReadReg(XPSR)  returns 0x61000000 (0000ms, 0301ms total)
T4CE4 030:151 JLINK_ReadReg(MSP)  returns 0x200006F0 (0000ms, 0301ms total)
T4CE4 030:151 JLINK_ReadReg(PSP)  returns 0x20001000 (0000ms, 0301ms total)
T4CE4 030:151 JLINK_ReadReg(CFBP)  returns 0x00000000 (0000ms, 0301ms total)
T4FD4 030:153 JLINK_ReadMem (0x200006F4, 0x0004 Bytes, ...) -- CPU_ReadMem(64 bytes @ 0x200006C0) -- Updating C cache (64 bytes @ 0x200006C0) -- Read from C cache (4 bytes @ 0x200006F4) - Data: 49 01 00 08  returns 0x00 (0001ms, 0302ms total)
T4FD4 030:154 JLINK_ReadMem (0x200006F0, 0x0004 Bytes, ...) -- Read from C cache (4 bytes @ 0x200006F0) - Data: 50 8C 00 08  returns 0x00 (0000ms, 0302ms total)
T4FD4 030:170 JLINK_ReadMemU32(0xE0001004, 0x0001 Items, ...) -- CPU_ReadMem(4 bytes @ 0xE0001004) - Data: 27 20 00 00  returns 0x01 (0001ms, 0303ms total)
T4FD4 030:181 JLINK_ReadMem (0x08000156, 0x0002 Bytes, ...) -- CPU_ReadMem(64 bytes @ 0x08000140) -- Updating C cache (64 bytes @ 0x08000140) -- Read from C cache (2 bytes @ 0x08000156) - Data: 00 F0  returns 0x00 (0002ms, 0305ms total)
T4FD4 030:183 JLINK_ReadMem (0x08000158, 0x003C Bytes, ...) -- CPU_ReadMem(64 bytes @ 0x08000180) -- Updating C cache (64 bytes @ 0x08000180) -- Read from C cache (60 bytes @ 0x08000158) - Data: 21 F8 4F F4 E1 30 01 F0 59 FF 05 F0 A9 FE 02 F0 ...  returns 0x00 (0001ms, 0306ms total)
T4CE4 035:018 JLINK_SetBPEx(Addr = 0x0800015A, Type = 0xFFFFFFF2)  returns 0x00000003 (0000ms, 0306ms total)
T4CE4 035:018 JLINK_Go() -- CPU_ReadMem(4 bytes @ 0xE0001000) -- CPU_WriteMem(4 bytes @ 0xE0002008) (0002ms, 0308ms total)
T4CE4 035:122 JLINK_IsHalted()  returns TRUE (0002ms, 0310ms total)
T4CE4 035:125 JLINK_Halt()  returns 0x00 (0000ms, 0308ms total)
T4CE4 035:125 JLINK_IsHalted()  returns TRUE (0000ms, 0308ms total)
T4CE4 035:125 JLINK_IsHalted()  returns TRUE (0000ms, 0308ms total)
T4CE4 035:125 JLINK_IsHalted()  returns TRUE (0000ms, 0308ms total)
T4CE4 035:125 JLINK_ReadReg(R15 (PC))  returns 0x0800015A (0000ms, 0308ms total)
T4CE4 035:125 JLINK_ReadReg(XPSR)  returns 0x61000000 (0000ms, 0308ms total)
T4CE4 035:125 JLINK_ClrBPEx(BPHandle = 0x00000003)  returns 0x00 (0000ms, 0308ms total)
T4CE4 035:125 JLINK_ReadMemU32(0xE000ED30, 0x0001 Items, ...) -- CPU_ReadMem(4 bytes @ 0xE000ED30) - Data: 03 00 00 00  returns 0x01 (0001ms, 0309ms total)
T4CE4 035:126 JLINK_ReadMemU32(0xE0001028, 0x0001 Items, ...) -- CPU_ReadMem(4 bytes @ 0xE0001028) - Data: 00 00 00 00  returns 0x01 (0001ms, 0310ms total)
T4CE4 035:127 JLINK_ReadMemU32(0xE0001038, 0x0001 Items, ...) -- CPU_ReadMem(4 bytes @ 0xE0001038) - Data: 00 02 00 00  returns 0x01 (0001ms, 0311ms total)
T4CE4 035:128 JLINK_ReadMemU32(0xE0001048, 0x0001 Items, ...) -- CPU_ReadMem(4 bytes @ 0xE0001048) - Data: 00 00 00 00  returns 0x01 (0001ms, 0312ms total)
T4CE4 035:129 JLINK_ReadMemU32(0xE0001058, 0x0001 Items, ...) -- CPU_ReadMem(4 bytes @ 0xE0001058) - Data: 00 00 00 00  returns 0x01 (0000ms, 0312ms total)
T4CE4 035:129 JLINK_ReadReg(R0)  returns 0x00000000 (0000ms, 0312ms total)
T4CE4 035:129 JLINK_ReadReg(R1)  returns 0x20000000 (0000ms, 0312ms total)
T4CE4 035:129 JLINK_ReadReg(R2)  returns 0xE000E000 (0000ms, 0312ms total)
T4CE4 035:129 JLINK_ReadReg(R3)  returns 0xE000ED18 (0000ms, 0312ms total)
T4CE4 035:129 JLINK_ReadReg(R4)  returns 0x08008C50 (0000ms, 0312ms total)
T4CE4 035:129 JLINK_ReadReg(R5)  returns 0x08008C50 (0000ms, 0312ms total)
T4CE4 035:129 JLINK_ReadReg(R6)  returns 0x00000000 (0000ms, 0312ms total)
T4CE4 035:129 JLINK_ReadReg(R7)  returns 0x00000000 (0000ms, 0312ms total)
T4CE4 035:129 JLINK_ReadReg(R8)  returns 0x00000000 (0000ms, 0312ms total)
T4CE4 035:129 JLINK_ReadReg(R9)  returns 0x20000160 (0000ms, 0312ms total)
T4CE4 035:129 JLINK_ReadReg(R10)  returns 0x00000000 (0000ms, 0312ms total)
T4CE4 035:129 JLINK_ReadReg(R11)  returns 0x00000000 (0000ms, 0312ms total)
T4CE4 035:129 JLINK_ReadReg(R12)  returns 0x00000800 (0000ms, 0312ms total)
T4CE4 035:129 JLINK_ReadReg(R13 (SP))  returns 0x200006F0 (0000ms, 0312ms total)
T4CE4 035:129 JLINK_ReadReg(R14)  returns 0x0800015B (0000ms, 0312ms total)
T4CE4 035:129 JLINK_ReadReg(R15 (PC))  returns 0x0800015A (0000ms, 0312ms total)
T4CE4 035:129 JLINK_ReadReg(XPSR)  returns 0x61000000 (0000ms, 0312ms total)
T4CE4 035:129 JLINK_ReadReg(MSP)  returns 0x200006F0 (0000ms, 0312ms total)
T4CE4 035:129 JLINK_ReadReg(PSP)  returns 0x20001000 (0000ms, 0312ms total)
T4CE4 035:129 JLINK_ReadReg(CFBP)  returns 0x00000000 (0000ms, 0312ms total)
T4FD4 035:130 JLINK_ReadMem (0x200006F4, 0x0004 Bytes, ...) -- CPU_ReadMem(64 bytes @ 0x200006C0) -- Updating C cache (64 bytes @ 0x200006C0) -- Read from C cache (4 bytes @ 0x200006F4) - Data: 49 01 00 08  returns 0x00 (0001ms, 0313ms total)
T4FD4 035:131 JLINK_ReadMem (0x200006F0, 0x0004 Bytes, ...) -- Read from C cache (4 bytes @ 0x200006F0) - Data: 50 8C 00 08  returns 0x00 (0000ms, 0313ms total)
T4FD4 035:131 JLINK_ReadMemU32(0xE0001004, 0x0001 Items, ...) -- CPU_ReadMem(4 bytes @ 0xE0001004) - Data: 3E 20 00 00  returns 0x01 (0001ms, 0314ms total)
T4FD4 035:138 JLINK_ReadMem (0x0800015A, 0x0002 Bytes, ...) -- CPU_ReadMem(64 bytes @ 0x08000140) -- Updating C cache (64 bytes @ 0x08000140) -- Read from C cache (2 bytes @ 0x0800015A) - Data: 4F F4  returns 0x00 (0002ms, 0316ms total)
T4FD4 035:140 JLINK_ReadMem (0x0800015C, 0x003C Bytes, ...) -- CPU_ReadMem(64 bytes @ 0x08000180) -- Updating C cache (64 bytes @ 0x08000180) -- Read from C cache (60 bytes @ 0x0800015C) - Data: E1 30 01 F0 59 FF 05 F0 A9 FE 02 F0 D8 F8 02 F0 ...  returns 0x00 (0001ms, 0317ms total)
T4CE4 039:910 JLINK_SetBPEx(Addr = 0x08000162, Type = 0xFFFFFFF2)  returns 0x00000004 (0000ms, 0317ms total)
T4CE4 039:910 JLINK_Go() -- CPU_ReadMem(4 bytes @ 0xE0001000) -- CPU_WriteMem(4 bytes @ 0xE0002008) (0003ms, 0320ms total)
T4CE4 040:013 JLINK_IsHalted()  returns TRUE (0003ms, 0323ms total)
T4CE4 040:016 JLINK_Halt()  returns 0x00 (0000ms, 0320ms total)
T4CE4 040:016 JLINK_IsHalted()  returns TRUE (0000ms, 0320ms total)
T4CE4 040:016 JLINK_IsHalted()  returns TRUE (0000ms, 0320ms total)
T4CE4 040:016 JLINK_IsHalted()  returns TRUE (0000ms, 0320ms total)
T4CE4 040:016 JLINK_ReadReg(R15 (PC))  returns 0x08000162 (0000ms, 0320ms total)
T4CE4 040:016 JLINK_ReadReg(XPSR)  returns 0x01000000 (0000ms, 0320ms total)
T4CE4 040:016 JLINK_ClrBPEx(BPHandle = 0x00000004)  returns 0x00 (0000ms, 0320ms total)
T4CE4 040:016 JLINK_ReadMemU32(0xE000ED30, 0x0001 Items, ...) -- CPU_ReadMem(4 bytes @ 0xE000ED30) - Data: 03 00 00 00  returns 0x01 (0001ms, 0321ms total)
T4CE4 040:017 JLINK_ReadMemU32(0xE0001028, 0x0001 Items, ...) -- CPU_ReadMem(4 bytes @ 0xE0001028) - Data: 00 00 00 00  returns 0x01 (0001ms, 0322ms total)
T4CE4 040:018 JLINK_ReadMemU32(0xE0001038, 0x0001 Items, ...) -- CPU_ReadMem(4 bytes @ 0xE0001038) - Data: 00 02 00 00  returns 0x01 (0002ms, 0324ms total)
T4CE4 040:020 JLINK_ReadMemU32(0xE0001048, 0x0001 Items, ...) -- CPU_ReadMem(4 bytes @ 0xE0001048) - Data: 00 00 00 00  returns 0x01 (0000ms, 0324ms total)
T4CE4 040:020 JLINK_ReadMemU32(0xE0001058, 0x0001 Items, ...) -- CPU_ReadMem(4 bytes @ 0xE0001058) - Data: 00 00 00 00  returns 0x01 (0001ms, 0325ms total)
T4CE4 040:021 JLINK_ReadReg(R0)  returns 0x40013800 (0000ms, 0325ms total)
T4CE4 040:021 JLINK_ReadReg(R1)  returns 0x00000001 (0000ms, 0325ms total)
T4CE4 040:021 JLINK_ReadReg(R2)  returns 0x0000202C (0000ms, 0325ms total)
T4CE4 040:021 JLINK_ReadReg(R3)  returns 0x40013800 (0000ms, 0325ms total)
T4CE4 040:021 JLINK_ReadReg(R4)  returns 0x08008C50 (0000ms, 0325ms total)
T4CE4 040:021 JLINK_ReadReg(R5)  returns 0x08008C50 (0000ms, 0325ms total)
T4CE4 040:021 JLINK_ReadReg(R6)  returns 0x00000000 (0000ms, 0325ms total)
T4CE4 040:021 JLINK_ReadReg(R7)  returns 0x00000000 (0000ms, 0325ms total)
T4CE4 040:021 JLINK_ReadReg(R8)  returns 0x00000000 (0000ms, 0325ms total)
T4CE4 040:022 JLINK_ReadReg(R9)  returns 0x20000160 (0000ms, 0326ms total)
T4CE4 040:022 JLINK_ReadReg(R10)  returns 0x00000000 (0000ms, 0326ms total)
T4CE4 040:022 JLINK_ReadReg(R11)  returns 0x00000000 (0000ms, 0326ms total)
T4CE4 040:022 JLINK_ReadReg(R12)  returns 0x00000400 (0000ms, 0326ms total)
T4CE4 040:022 JLINK_ReadReg(R13 (SP))  returns 0x200006F0 (0000ms, 0326ms total)
T4CE4 040:022 JLINK_ReadReg(R14)  returns 0x080020AF (0000ms, 0326ms total)
T4CE4 040:022 JLINK_ReadReg(R15 (PC))  returns 0x08000162 (0000ms, 0326ms total)
T4CE4 040:022 JLINK_ReadReg(XPSR)  returns 0x01000000 (0000ms, 0326ms total)
T4CE4 040:022 JLINK_ReadReg(MSP)  returns 0x200006F0 (0000ms, 0326ms total)
T4CE4 040:022 JLINK_ReadReg(PSP)  returns 0x20001000 (0000ms, 0326ms total)
T4CE4 040:022 JLINK_ReadReg(CFBP)  returns 0x00000000 (0000ms, 0326ms total)
T4FD4 040:023 JLINK_ReadMem (0x200006F4, 0x0004 Bytes, ...) -- CPU_ReadMem(64 bytes @ 0x200006C0) -- Updating C cache (64 bytes @ 0x200006C0) -- Read from C cache (4 bytes @ 0x200006F4) - Data: 49 01 00 08  returns 0x00 (0002ms, 0328ms total)
T4FD4 040:025 JLINK_ReadMem (0x200006F0, 0x0004 Bytes, ...) -- Read from C cache (4 bytes @ 0x200006F0) - Data: 50 8C 00 08  returns 0x00 (0000ms, 0328ms total)
T4FD4 040:025 JLINK_ReadMemU32(0xE0001004, 0x0001 Items, ...) -- CPU_ReadMem(4 bytes @ 0xE0001004) - Data: 56 25 00 00  returns 0x01 (0001ms, 0329ms total)
T4FD4 040:043 JLINK_ReadMem (0x08000162, 0x0002 Bytes, ...) -- CPU_ReadMem(64 bytes @ 0x08000140) -- Updating C cache (64 bytes @ 0x08000140) -- Read from C cache (2 bytes @ 0x08000162) - Data: 05 F0  returns 0x00 (0002ms, 0331ms total)
T4FD4 040:045 JLINK_ReadMem (0x08000164, 0x003C Bytes, ...) -- CPU_ReadMem(64 bytes @ 0x08000180) -- Updating C cache (64 bytes @ 0x08000180) -- Read from C cache (60 bytes @ 0x08000164) - Data: A9 FE 02 F0 D8 F8 02 F0 BD F8 01 F0 E5 FF 02 F0 ...  returns 0x00 (0001ms, 0332ms total)
T4CE4 043:985 JLINK_SetBPEx(Addr = 0x08000166, Type = 0xFFFFFFF2)  returns 0x00000005 (0000ms, 0332ms total)
T4CE4 043:985 JLINK_Go() -- CPU_ReadMem(4 bytes @ 0xE0001000) -- CPU_WriteMem(4 bytes @ 0xE0002008) (0002ms, 0334ms total)
T4CE4 044:089 JLINK_IsHalted()  returns TRUE (0003ms, 0337ms total)
T4CE4 044:092 JLINK_Halt()  returns 0x00 (0000ms, 0334ms total)
T4CE4 044:092 JLINK_IsHalted()  returns TRUE (0000ms, 0334ms total)
T4CE4 044:092 JLINK_IsHalted()  returns TRUE (0000ms, 0334ms total)
T4CE4 044:092 JLINK_IsHalted()  returns TRUE (0000ms, 0334ms total)
T4CE4 044:092 JLINK_ReadReg(R15 (PC))  returns 0x08000166 (0000ms, 0334ms total)
T4CE4 044:092 JLINK_ReadReg(XPSR)  returns 0x01000000 (0000ms, 0334ms total)
T4CE4 044:092 JLINK_ClrBPEx(BPHandle = 0x00000005)  returns 0x00 (0000ms, 0334ms total)
T4CE4 044:092 JLINK_ReadMemU32(0xE000ED30, 0x0001 Items, ...) -- CPU_ReadMem(4 bytes @ 0xE000ED30) - Data: 03 00 00 00  returns 0x01 (0001ms, 0335ms total)
T4CE4 044:093 JLINK_ReadMemU32(0xE0001028, 0x0001 Items, ...) -- CPU_ReadMem(4 bytes @ 0xE0001028) - Data: 00 00 00 00  returns 0x01 (0001ms, 0336ms total)
T4CE4 044:094 JLINK_ReadMemU32(0xE0001038, 0x0001 Items, ...) -- CPU_ReadMem(4 bytes @ 0xE0001038) - Data: 00 02 00 00  returns 0x01 (0000ms, 0336ms total)
T4CE4 044:094 JLINK_ReadMemU32(0xE0001048, 0x0001 Items, ...) -- CPU_ReadMem(4 bytes @ 0xE0001048) - Data: 00 00 00 00  returns 0x01 (0001ms, 0337ms total)
T4CE4 044:095 JLINK_ReadMemU32(0xE0001058, 0x0001 Items, ...) -- CPU_ReadMem(4 bytes @ 0xE0001058) - Data: 00 00 00 00  returns 0x01 (0001ms, 0338ms total)
T4CE4 044:096 JLINK_ReadReg(R0)  returns 0x200006D4 (0000ms, 0338ms total)
T4CE4 044:096 JLINK_ReadReg(R1)  returns 0x00000000 (0000ms, 0338ms total)
T4CE4 044:096 JLINK_ReadReg(R2)  returns 0x00000007 (0000ms, 0338ms total)
T4CE4 044:096 JLINK_ReadReg(R3)  returns 0x00000003 (0000ms, 0338ms total)
T4CE4 044:096 JLINK_ReadReg(R4)  returns 0x08008C50 (0000ms, 0338ms total)
T4CE4 044:096 JLINK_ReadReg(R5)  returns 0x08008C50 (0000ms, 0338ms total)
T4CE4 044:096 JLINK_ReadReg(R6)  returns 0x00000000 (0000ms, 0338ms total)
T4CE4 044:096 JLINK_ReadReg(R7)  returns 0x00000000 (0000ms, 0338ms total)
T4CE4 044:096 JLINK_ReadReg(R8)  returns 0x00000000 (0000ms, 0338ms total)
T4CE4 044:096 JLINK_ReadReg(R9)  returns 0x20000160 (0000ms, 0338ms total)
T4CE4 044:096 JLINK_ReadReg(R10)  returns 0x00000000 (0000ms, 0338ms total)
T4CE4 044:096 JLINK_ReadReg(R11)  returns 0x00000000 (0000ms, 0338ms total)
T4CE4 044:096 JLINK_ReadReg(R12)  returns 0x00000008 (0000ms, 0338ms total)
T4CE4 044:096 JLINK_ReadReg(R13 (SP))  returns 0x200006F0 (0000ms, 0338ms total)
T4CE4 044:096 JLINK_ReadReg(R14)  returns 0x08005F59 (0000ms, 0338ms total)
T4CE4 044:096 JLINK_ReadReg(R15 (PC))  returns 0x08000166 (0000ms, 0338ms total)
T4CE4 044:096 JLINK_ReadReg(XPSR)  returns 0x01000000 (0000ms, 0338ms total)
T4CE4 044:096 JLINK_ReadReg(MSP)  returns 0x200006F0 (0000ms, 0338ms total)
T4CE4 044:096 JLINK_ReadReg(PSP)  returns 0x20001000 (0000ms, 0338ms total)
T4CE4 044:096 JLINK_ReadReg(CFBP)  returns 0x00000000 (0000ms, 0338ms total)
T4FD4 044:096 JLINK_ReadMem (0x200006F4, 0x0004 Bytes, ...) -- CPU_ReadMem(64 bytes @ 0x200006C0) -- Updating C cache (64 bytes @ 0x200006C0) -- Read from C cache (4 bytes @ 0x200006F4) - Data: 49 01 00 08  returns 0x00 (0002ms, 0340ms total)
T4FD4 044:098 JLINK_ReadMem (0x200006F0, 0x0004 Bytes, ...) -- Read from C cache (4 bytes @ 0x200006F0) - Data: 50 8C 00 08  returns 0x00 (0000ms, 0340ms total)
T4FD4 044:098 JLINK_ReadMemU32(0xE0001004, 0x0001 Items, ...) -- CPU_ReadMem(4 bytes @ 0xE0001004) - Data: 02 2A 00 00  returns 0x01 (0001ms, 0341ms total)
T4FD4 044:105 JLINK_ReadMem (0x08000166, 0x0002 Bytes, ...) -- CPU_ReadMem(64 bytes @ 0x08000140) -- Updating C cache (64 bytes @ 0x08000140) -- Read from C cache (2 bytes @ 0x08000166) - Data: 02 F0  returns 0x00 (0001ms, 0342ms total)
T4FD4 044:106 JLINK_ReadMem (0x08000168, 0x003C Bytes, ...) -- CPU_ReadMem(64 bytes @ 0x08000180) -- Updating C cache (64 bytes @ 0x08000180) -- Read from C cache (60 bytes @ 0x08000168) - Data: D8 F8 02 F0 BD F8 01 F0 E5 FF 02 F0 DD F9 02 F0 ...  returns 0x00 (0001ms, 0343ms total)
T4CE4 048:598 JLINK_SetBPEx(Addr = 0x0800016A, Type = 0xFFFFFFF2)  returns 0x00000006 (0000ms, 0343ms total)
T4CE4 048:598 JLINK_Go() -- CPU_ReadMem(4 bytes @ 0xE0001000) -- CPU_WriteMem(4 bytes @ 0xE0002008) (0002ms, 0345ms total)
T4CE4 048:701 JLINK_IsHalted()  returns TRUE (0004ms, 0349ms total)
T4CE4 048:705 JLINK_Halt()  returns 0x00 (0000ms, 0345ms total)
T4CE4 048:705 JLINK_IsHalted()  returns TRUE (0000ms, 0345ms total)
T4CE4 048:705 JLINK_IsHalted()  returns TRUE (0000ms, 0345ms total)
T4CE4 048:705 JLINK_IsHalted()  returns TRUE (0000ms, 0345ms total)
T4CE4 048:705 JLINK_ReadReg(R15 (PC))  returns 0x0800016A (0000ms, 0345ms total)
T4CE4 048:705 JLINK_ReadReg(XPSR)  returns 0x01000000 (0000ms, 0345ms total)
T4CE4 048:705 JLINK_ClrBPEx(BPHandle = 0x00000006)  returns 0x00 (0000ms, 0345ms total)
T4CE4 048:705 JLINK_ReadMemU32(0xE000ED30, 0x0001 Items, ...) -- CPU_ReadMem(4 bytes @ 0xE000ED30) - Data: 03 00 00 00  returns 0x01 (0001ms, 0346ms total)
T4CE4 048:706 JLINK_ReadMemU32(0xE0001028, 0x0001 Items, ...) -- CPU_ReadMem(4 bytes @ 0xE0001028) - Data: 00 00 00 00  returns 0x01 (0001ms, 0347ms total)
T4CE4 048:707 JLINK_ReadMemU32(0xE0001038, 0x0001 Items, ...) -- CPU_ReadMem(4 bytes @ 0xE0001038) - Data: 00 02 00 00  returns 0x01 (0001ms, 0348ms total)
T4CE4 048:708 JLINK_ReadMemU32(0xE0001048, 0x0001 Items, ...) -- CPU_ReadMem(4 bytes @ 0xE0001048) - Data: 00 00 00 00  returns 0x01 (0001ms, 0349ms total)
T4CE4 048:709 JLINK_ReadMemU32(0xE0001058, 0x0001 Items, ...) -- CPU_ReadMem(4 bytes @ 0xE0001058) - Data: 00 00 00 00  returns 0x01 (0000ms, 0349ms total)
T4CE4 048:709 JLINK_ReadReg(R0)  returns 0x40000400 (0000ms, 0349ms total)
T4CE4 048:709 JLINK_ReadReg(R1)  returns 0x00000001 (0000ms, 0349ms total)
T4CE4 048:709 JLINK_ReadReg(R2)  returns 0x00000001 (0000ms, 0349ms total)
T4CE4 048:709 JLINK_ReadReg(R3)  returns 0x00000800 (0000ms, 0349ms total)
T4CE4 048:709 JLINK_ReadReg(R4)  returns 0x08008C50 (0000ms, 0349ms total)
T4CE4 048:709 JLINK_ReadReg(R5)  returns 0x08008C50 (0000ms, 0349ms total)
T4CE4 048:709 JLINK_ReadReg(R6)  returns 0x00000000 (0000ms, 0349ms total)
T4CE4 048:709 JLINK_ReadReg(R7)  returns 0x00000000 (0000ms, 0349ms total)
T4CE4 048:709 JLINK_ReadReg(R8)  returns 0x00000000 (0000ms, 0349ms total)
T4CE4 048:709 JLINK_ReadReg(R9)  returns 0x20000160 (0000ms, 0349ms total)
T4CE4 048:709 JLINK_ReadReg(R10)  returns 0x00000000 (0000ms, 0349ms total)
T4CE4 048:709 JLINK_ReadReg(R11)  returns 0x00000000 (0000ms, 0349ms total)
T4CE4 048:709 JLINK_ReadReg(R12)  returns 0x000000C0 (0000ms, 0349ms total)
T4CE4 048:709 JLINK_ReadReg(R13 (SP))  returns 0x200006F0 (0000ms, 0349ms total)
T4CE4 048:709 JLINK_ReadReg(R14)  returns 0x080023B9 (0000ms, 0349ms total)
T4CE4 048:709 JLINK_ReadReg(R15 (PC))  returns 0x0800016A (0000ms, 0349ms total)
T4CE4 048:709 JLINK_ReadReg(XPSR)  returns 0x01000000 (0000ms, 0349ms total)
T4CE4 048:709 JLINK_ReadReg(MSP)  returns 0x200006F0 (0000ms, 0349ms total)
T4CE4 048:709 JLINK_ReadReg(PSP)  returns 0x20001000 (0000ms, 0349ms total)
T4CE4 048:709 JLINK_ReadReg(CFBP)  returns 0x00000000 (0000ms, 0349ms total)
T4FD4 048:712 JLINK_ReadMem (0x200006F4, 0x0004 Bytes, ...) -- CPU_ReadMem(64 bytes @ 0x200006C0) -- Updating C cache (64 bytes @ 0x200006C0) -- Read from C cache (4 bytes @ 0x200006F4) - Data: 49 01 00 08  returns 0x00 (0001ms, 0350ms total)
T4FD4 048:713 JLINK_ReadMem (0x200006F0, 0x0004 Bytes, ...) -- Read from C cache (4 bytes @ 0x200006F0) - Data: 50 8C 00 08  returns 0x00 (0000ms, 0350ms total)
T4FD4 048:713 JLINK_ReadMemU32(0xE0001004, 0x0001 Items, ...) -- CPU_ReadMem(4 bytes @ 0xE0001004) - Data: 8F 2D 00 00  returns 0x01 (0001ms, 0351ms total)
T4FD4 048:722 JLINK_ReadMem (0x0800016A, 0x0002 Bytes, ...) -- CPU_ReadMem(64 bytes @ 0x08000140) -- Updating C cache (64 bytes @ 0x08000140) -- Read from C cache (2 bytes @ 0x0800016A) - Data: 02 F0  returns 0x00 (0002ms, 0353ms total)
T4FD4 048:724 JLINK_ReadMem (0x0800016C, 0x003C Bytes, ...) -- CPU_ReadMem(64 bytes @ 0x08000180) -- Updating C cache (64 bytes @ 0x08000180) -- Read from C cache (60 bytes @ 0x0800016C) - Data: BD F8 01 F0 E5 FF 02 F0 DD F9 02 F0 22 FE 02 F0 ...  returns 0x00 (0001ms, 0354ms total)
T4CE4 055:546 JLINK_SetBPEx(Addr = 0x08000172, Type = 0xFFFFFFF2)  returns 0x00000007 (0000ms, 0354ms total)
T4CE4 055:546 JLINK_SetBPEx(Addr = 0x0800016E, Type = 0xFFFFFFF2)  returns 0x00000008 (0000ms, 0354ms total)
T4CE4 055:546 JLINK_SetBPEx(Addr = 0x08000176, Type = 0xFFFFFFF2)  returns 0x00000009 (0000ms, 0354ms total)
T4CE4 055:546 JLINK_SetBPEx(Addr = 0x0800017A, Type = 0xFFFFFFF2)  returns 0x0000000A (0000ms, 0354ms total)
T4CE4 055:546 JLINK_Go() -- CPU_ReadMem(4 bytes @ 0xE0001000) -- CPU_WriteMem(4 bytes @ 0xE0002008) -- CPU_WriteMem(4 bytes @ 0xE000200C) -- CPU_WriteMem(4 bytes @ 0xE0002010) -- CPU_WriteMem(4 bytes @ 0xE0002014) (0003ms, 0357ms total)
T4CE4 055:650 JLINK_IsHalted()  returns TRUE (0003ms, 0360ms total)
T4CE4 055:653 JLINK_Halt()  returns 0x00 (0001ms, 0358ms total)
T4CE4 055:654 JLINK_IsHalted()  returns TRUE (0000ms, 0358ms total)
T4CE4 055:654 JLINK_IsHalted()  returns TRUE (0000ms, 0358ms total)
T4CE4 055:654 JLINK_IsHalted()  returns TRUE (0000ms, 0358ms total)
T4CE4 055:654 JLINK_ReadReg(R15 (PC))  returns 0x0800016E (0000ms, 0358ms total)
T4CE4 055:654 JLINK_ReadReg(XPSR)  returns 0x61000000 (0000ms, 0358ms total)
T4CE4 055:654 JLINK_ClrBPEx(BPHandle = 0x00000007)  returns 0x00 (0000ms, 0358ms total)
T4CE4 055:654 JLINK_ClrBPEx(BPHandle = 0x00000008)  returns 0x00 (0000ms, 0358ms total)
T4CE4 055:654 JLINK_ClrBPEx(BPHandle = 0x00000009)  returns 0x00 (0000ms, 0358ms total)
T4CE4 055:654 JLINK_ClrBPEx(BPHandle = 0x0000000A)  returns 0x00 (0000ms, 0358ms total)
T4CE4 055:654 JLINK_ReadMemU32(0xE000ED30, 0x0001 Items, ...) -- CPU_ReadMem(4 bytes @ 0xE000ED30) - Data: 03 00 00 00  returns 0x01 (0001ms, 0359ms total)
T4CE4 055:655 JLINK_ReadMemU32(0xE0001028, 0x0001 Items, ...) -- CPU_ReadMem(4 bytes @ 0xE0001028) - Data: 00 00 00 00  returns 0x01 (0001ms, 0360ms total)
T4CE4 055:656 JLINK_ReadMemU32(0xE0001038, 0x0001 Items, ...) -- CPU_ReadMem(4 bytes @ 0xE0001038) - Data: 00 02 00 00  returns 0x01 (0001ms, 0361ms total)
T4CE4 055:657 JLINK_ReadMemU32(0xE0001048, 0x0001 Items, ...) -- CPU_ReadMem(4 bytes @ 0xE0001048) - Data: 00 00 00 00  returns 0x01 (0001ms, 0362ms total)
T4CE4 055:658 JLINK_ReadMemU32(0xE0001058, 0x0001 Items, ...) -- CPU_ReadMem(4 bytes @ 0xE0001058) - Data: 00 00 00 00  returns 0x01 (0001ms, 0363ms total)
T4CE4 055:659 JLINK_ReadReg(R0)  returns 0x40011000 (0000ms, 0363ms total)
T4CE4 055:659 JLINK_ReadReg(R1)  returns 0x00000100 (0000ms, 0363ms total)
T4CE4 055:659 JLINK_ReadReg(R2)  returns 0x40011000 (0000ms, 0363ms total)
T4CE4 055:659 JLINK_ReadReg(R3)  returns 0x100301F0 (0000ms, 0363ms total)
T4CE4 055:659 JLINK_ReadReg(R4)  returns 0x08008C50 (0000ms, 0363ms total)
T4CE4 055:659 JLINK_ReadReg(R5)  returns 0x08008C50 (0000ms, 0363ms total)
T4CE4 055:659 JLINK_ReadReg(R6)  returns 0x00000000 (0000ms, 0363ms total)
T4CE4 055:659 JLINK_ReadReg(R7)  returns 0x00000000 (0000ms, 0363ms total)
T4CE4 055:659 JLINK_ReadReg(R8)  returns 0x00000000 (0000ms, 0363ms total)
T4CE4 055:659 JLINK_ReadReg(R9)  returns 0x20000160 (0000ms, 0363ms total)
T4CE4 055:659 JLINK_ReadReg(R10)  returns 0x00000000 (0000ms, 0363ms total)
T4CE4 055:659 JLINK_ReadReg(R11)  returns 0x00000000 (0000ms, 0363ms total)
T4CE4 055:659 JLINK_ReadReg(R12)  returns 0x000001F0 (0000ms, 0363ms total)
T4CE4 055:659 JLINK_ReadReg(R13 (SP))  returns 0x200006F0 (0000ms, 0363ms total)
T4CE4 055:659 JLINK_ReadReg(R14)  returns 0x08002319 (0000ms, 0363ms total)
T4CE4 055:659 JLINK_ReadReg(R15 (PC))  returns 0x0800016E (0001ms, 0364ms total)
T4CE4 055:660 JLINK_ReadReg(XPSR)  returns 0x61000000 (0000ms, 0364ms total)
T4CE4 055:660 JLINK_ReadReg(MSP)  returns 0x200006F0 (0000ms, 0364ms total)
T4CE4 055:660 JLINK_ReadReg(PSP)  returns 0x20001000 (0000ms, 0364ms total)
T4CE4 055:660 JLINK_ReadReg(CFBP)  returns 0x00000000 (0000ms, 0364ms total)
T4FD4 055:660 JLINK_ReadMem (0x200006F4, 0x0004 Bytes, ...) -- CPU_ReadMem(64 bytes @ 0x200006C0) -- Updating C cache (64 bytes @ 0x200006C0) -- Read from C cache (4 bytes @ 0x200006F4) - Data: 49 01 00 08  returns 0x00 (0002ms, 0366ms total)
T4FD4 055:662 JLINK_ReadMem (0x200006F0, 0x0004 Bytes, ...) -- Read from C cache (4 bytes @ 0x200006F0) - Data: 50 8C 00 08  returns 0x00 (0000ms, 0366ms total)
T4FD4 055:662 JLINK_ReadMemU32(0xE0001004, 0x0001 Items, ...) -- CPU_ReadMem(4 bytes @ 0xE0001004) - Data: 0F 30 00 00  returns 0x01 (0001ms, 0367ms total)
T4FD4 055:683 JLINK_ReadMem (0x0800016E, 0x0002 Bytes, ...) -- CPU_ReadMem(64 bytes @ 0x08000140) -- Updating C cache (64 bytes @ 0x08000140) -- Read from C cache (2 bytes @ 0x0800016E) - Data: 01 F0  returns 0x00 (0001ms, 0368ms total)
T4FD4 055:685 JLINK_ReadMem (0x08000170, 0x003C Bytes, ...) -- CPU_ReadMem(64 bytes @ 0x08000180) -- Updating C cache (64 bytes @ 0x08000180) -- Read from C cache (60 bytes @ 0x08000170) - Data: E5 FF 02 F0 DD F9 02 F0 22 FE 02 F0 0C FE 10 BD ...  returns 0x00 (0001ms, 0369ms total)
T4CE4 056:548 JLINK_Step() -- Read from C cache (2 bytes @ 0x0800016E) -- Read from C cache (2 bytes @ 0x08000170) -- Simulated  returns 0x00 (0000ms, 0369ms total)
T4CE4 056:548 JLINK_ReadReg(R15 (PC))  returns 0x0800213C (0000ms, 0369ms total)
T4CE4 056:548 JLINK_ReadReg(XPSR)  returns 0x61000000 (0000ms, 0369ms total)
T4CE4 056:548 JLINK_SetBPEx(Addr = 0x08000172, Type = 0xFFFFFFF2)  returns 0x0000000B (0000ms, 0369ms total)
T4CE4 056:548 JLINK_SetBPEx(Addr = 0x0800016E, Type = 0xFFFFFFF2)  returns 0x0000000C (0000ms, 0369ms total)
T4CE4 056:548 JLINK_SetBPEx(Addr = 0x08000176, Type = 0xFFFFFFF2)  returns 0x0000000D (0000ms, 0369ms total)
T4CE4 056:548 JLINK_SetBPEx(Addr = 0x0800017A, Type = 0xFFFFFFF2)  returns 0x0000000E (0000ms, 0369ms total)
T4CE4 056:548 JLINK_Go() -- CPU_ReadMem(4 bytes @ 0xE0001000) -- CPU_WriteMem(4 bytes @ 0xE0001004) (0003ms, 0372ms total)
T4CE4 056:653 JLINK_IsHalted()  returns TRUE (0003ms, 0375ms total)
T4CE4 056:657 JLINK_Halt()  returns 0x00 (0000ms, 0372ms total)
T4CE4 056:657 JLINK_IsHalted()  returns TRUE (0000ms, 0372ms total)
T4CE4 056:657 JLINK_IsHalted()  returns TRUE (0000ms, 0372ms total)
T4CE4 056:657 JLINK_IsHalted()  returns TRUE (0000ms, 0372ms total)
T4CE4 056:657 JLINK_ReadReg(R15 (PC))  returns 0x08000172 (0000ms, 0372ms total)
T4CE4 056:657 JLINK_ReadReg(XPSR)  returns 0x01000000 (0000ms, 0372ms total)
T4CE4 056:657 JLINK_ClrBPEx(BPHandle = 0x0000000B)  returns 0x00 (0000ms, 0372ms total)
T4CE4 056:657 JLINK_ClrBPEx(BPHandle = 0x0000000C)  returns 0x00 (0000ms, 0372ms total)
T4CE4 056:657 JLINK_ClrBPEx(BPHandle = 0x0000000D)  returns 0x00 (0000ms, 0372ms total)
T4CE4 056:657 JLINK_ClrBPEx(BPHandle = 0x0000000E)  returns 0x00 (0000ms, 0372ms total)
T4CE4 056:657 JLINK_ReadMemU32(0xE000ED30, 0x0001 Items, ...) -- CPU_ReadMem(4 bytes @ 0xE000ED30) - Data: 03 00 00 00  returns 0x01 (0001ms, 0373ms total)
T4CE4 056:658 JLINK_ReadMemU32(0xE0001028, 0x0001 Items, ...) -- CPU_ReadMem(4 bytes @ 0xE0001028) - Data: 00 00 00 00  returns 0x01 (0001ms, 0374ms total)
T4CE4 056:659 JLINK_ReadMemU32(0xE0001038, 0x0001 Items, ...) -- CPU_ReadMem(4 bytes @ 0xE0001038) - Data: 00 02 00 00  returns 0x01 (0001ms, 0375ms total)
T4CE4 056:660 JLINK_ReadMemU32(0xE0001048, 0x0001 Items, ...) -- CPU_ReadMem(4 bytes @ 0xE0001048) - Data: 00 00 00 00  returns 0x01 (0001ms, 0376ms total)
T4CE4 056:661 JLINK_ReadMemU32(0xE0001058, 0x0001 Items, ...) -- CPU_ReadMem(4 bytes @ 0xE0001058) - Data: 00 00 00 00  returns 0x01 (0001ms, 0377ms total)
T4CE4 056:662 JLINK_ReadReg(R0)  returns 0x40000800 (0000ms, 0377ms total)
T4CE4 056:662 JLINK_ReadReg(R1)  returns 0x00000001 (0000ms, 0377ms total)
T4CE4 056:662 JLINK_ReadReg(R2)  returns 0x00000001 (0000ms, 0377ms total)
